
**** 11/06/24 21:08:29 **** PSpice 23.1.0 (30 January 2024) *** ID# 0 ********

 ** Profile: "SCHEMATIC1-sim_psp"  [ c:\cds_spb_home\cdssetup\project4\project4-pspicefiles\schematic1\sim_psp.sim ] 


 ****     CIRCUIT DESCRIPTION


******************************************************************************




** Creating circuit file "sim_psp.cir" 
** WARNING: THIS AUTOMATICALLY GENERATED FILE MAY BE OVERWRITTEN BY SUBSEQUENT SIMULATIONS

*Libraries: 
* Profile Libraries :
* Local Libraries :
* From [PSPICE NETLIST] section of C:\cds_spb_home\cdssetup\OrCAD_PSpiceTIPSpice_Install\23.1.0\PSpice.ini file:
.lib "nom_pspti.lib" 
.lib "nom.lib" 

*Analysis directives: 
.TRAN  0 2.65u 2.35u 
.OPTIONS ADVCONV
.OPTIONS FILEMODELSEARCH
.OPTIONS ABSTOL= 1.0n
.OPTIONS ITL4= 1000
.OPTIONS RELTOL= 0.01
.PROBE64 V(alias(*)) I(alias(*)) W(alias(*)) D(alias(*)) NOISE(alias(*)) 
.INC "..\SCHEMATIC1.net" 



**** INCLUDING SCHEMATIC1.net ****
* source PROJECT4
V_V1         VCC 0 12Vdc
R_R1         N00167 VCC  2k TC=0,0 
R_R2         0 N00167  10k TC=0,0 
C_C1         0 N00167  1u  TC=0,0 
C_C2         0 N00415  1n  TC=0,0 
X_U1         N00415 N00579 VCC 0 N00579 OPA2156
V_V2         N08043 0 11Vdc
R_R3         N01127 VCC  1500k TC=0,0 
R_R4         N09487 VCC  1k TC=0,0 
M_M1         N09487 0 N01127 N01127 IRF123
X_U3         N01815 N01771 VCC 0 N01750 OPA2156
V_V3         N01815 0 3.5Vdc
X_Q7         N00415 N26891 N01754 BFG135/PLP 
X_Q8         N03553 N27016 N01754 BFG135/PLP 
X_Q10         N01754 N01750 N01771 BFG135/PLP 
R_R6         N03553 VCC  150 TC=0,0 
X_U5         N08043 N01127 VCC 0 N01016 OPA2156
X_Q11         N00415 N01016 N01127 BFT93/INF
X_D4         N00415 N00167 BAT54/PLP
D_D6         0 N00167 BZX84C9V1/PLP 
V_V4         N26891 0  
+PULSE 0V 6V 2.499u 200p 200p 0.001u 4u
V_V5         N27016 0  
+PULSE 0V 6V 0 400p 400p 2.499u 2.5u
R_R7         0 N01771  100 TC=0,0 

**** RESUMING sim_psp.cir ****
.END

**** 11/06/24 21:08:29 **** PSpice 23.1.0 (30 January 2024) *** ID# 0 ********

 ** Profile: "SCHEMATIC1-sim_psp"  [ c:\cds_spb_home\cdssetup\project4\project4-pspicefiles\schematic1\sim_psp.sim ] 


 ****     Diode MODEL PARAMETERS


******************************************************************************




               X_U1.X_U1.DVN   X_U3.X_U1.DVN   X_U5.X_U1.DVN   
          IS  100.000000E-18  100.000000E-18  100.000000E-18 
          KF    1.000000E-12    1.000000E-12    1.000000E-12 


**** 11/06/24 21:08:29 **** PSpice 23.1.0 (30 January 2024) *** ID# 0 ********

 ** Profile: "SCHEMATIC1-sim_psp"  [ c:\cds_spb_home\cdssetup\project4\project4-pspicefiles\schematic1\sim_psp.sim ] 


 ****     Resistor MODEL PARAMETERS


******************************************************************************




               X_U1.R_NOISELESS 
  T_Measured   27            
   T_Current -273.15         
           R    1            


               X_U3.R_NOISELESS 
  T_Measured   27            
   T_Current -273.15         
           R    1            


               X_U5.R_NOISELESS 
  T_Measured   27            
   T_Current -273.15         
           R    1            


**** 11/06/24 21:08:29 **** PSpice 23.1.0 (30 January 2024) *** ID# 0 ********

 ** Profile: "SCHEMATIC1-sim_psp"  [ c:\cds_spb_home\cdssetup\project4\project4-pspicefiles\schematic1\sim_psp.sim ] 


 ****     Voltage Controlled Switch MODEL PARAMETERS


******************************************************************************




               X_U1.X_S1._S1   X_U1.X_S2._S2   
         RON     .01             .01         
        ROFF    1.000000E+12    1.000000E+12 
         VON     .01             .01         
        VOFF    0               0            


               X_U1.X_U21.ESD_SW 
         RON   50            
        ROFF    1.000000E+12 
         VON     .5          
        VOFF     .45         


               X_U1.X_U25.OL_SW 
         RON    1.000000E-03 
        ROFF    1.000000E+12 
         VON     .9          
        VOFF     .8          


               X_U1.X_U5.ESD_SW                X_U3.X_S1._S1   X_U3.X_S2._S2   
         RON   50                                .01             .01         
        ROFF    1.000000E+12                    1.000000E+12    1.000000E+12 
         VON     .5                              .01             .01         
        VOFF     .45                            0               0            


               X_U3.X_U21.ESD_SW 
         RON   50            
        ROFF    1.000000E+12 
         VON     .5          
        VOFF     .45         


               X_U3.X_U25.OL_SW 
         RON    1.000000E-03 
        ROFF    1.000000E+12 
         VON     .9          
        VOFF     .8          


               X_U3.X_U5.ESD_SW                X_U5.X_S1._S1   X_U5.X_S2._S2   
         RON   50                                .01             .01         
        ROFF    1.000000E+12                    1.000000E+12    1.000000E+12 
         VON     .5                              .01             .01         
        VOFF     .45                            0               0            


               X_U5.X_U21.ESD_SW 
         RON   50            
        ROFF    1.000000E+12 
         VON     .5          
        VOFF     .45         


               X_U5.X_U25.OL_SW 
         RON    1.000000E-03 
        ROFF    1.000000E+12 
         VON     .9          
        VOFF     .8          


               X_U5.X_U5.ESD_SW 
         RON   50            
        ROFF    1.000000E+12 
         VON     .5          
        VOFF     .45         


WARNING(ORPSIM-16534): Using high values of ITL4 for Speed Level > 0 may increase total simulation job time.

Starting pseudo-transient algorithm.

INFO(ORPSIM-16594): To improve Pseudotransient Convergence and Performance, set following options to relax stabilization criteria for capacitor currents and inductor voltages: PTRANABSTOL=1e-5, PTRANVNTOL=1e-4

**** 11/06/24 21:08:29 **** PSpice 23.1.0 (30 January 2024) *** ID# 0 ********

 ** Profile: "SCHEMATIC1-sim_psp"  [ c:\cds_spb_home\cdssetup\project4\project4-pspicefiles\schematic1\sim_psp.sim ] 


 ****     INITIAL TRANSIENT SOLUTION       TEMPERATURE =   27.000 DEG C


******************************************************************************



 NODE   VOLTAGE     NODE   VOLTAGE     NODE   VOLTAGE     NODE   VOLTAGE


(  VCC)   12.0000  (N00167)    9.0404 (N00415)    9.1136 (N00579)    9.1137     

(N01016)   10.4190 (N01127)   11.0000 (N01750)    4.5086 (N01754)    3.5142     

(N01771)    3.5000 (N01815)    3.5000 (N03553)   12.0000 (N08043)   11.0000     

(N09487)   11.9970 (N26891)    0.0000 (N27016)    0.0000 (X_U1.MID)    5.9997   

(X_U1.V11)    5.9997                  (X_U1.V12)    5.9997                      

(X_U3.MID)    5.9997                  (X_U3.V11)    5.9997                      

(X_U3.V12)    5.9997                  (X_U5.MID)    5.9997                      

(X_U5.V11)    5.9997                  (X_U5.V12)    5.9997                      

(X_U1.ESDN)    9.1137                 (X_U1.ESDP)    9.1136                     

(X_U1.VCLP)    9.2948                 (X_U3.ESDN)    3.5000                     

(X_U3.ESDP)    3.5000                 (X_U3.VCLP)    8.1239                     

(X_U5.ESDN)   11.0000                 (X_U5.ESDP)   11.0000                     

(X_U5.VCLP)   10.6770                 (X_U1.CLAMP)    9.2960                    

(X_U1.VCC_B)   12.0000                (X_U1.VEE_B) 6.000E-06                    

(X_U1.VIMON)    5.9997                (X_U3.CLAMP)    8.1247                    

(X_U3.VCC_B)   12.0000                (X_U3.VEE_B) 6.000E-06                    

(X_U3.VIMON)   41.0000                (X_U5.CLAMP)   10.6780                    

(X_U5.VCC_B)   12.0000                (X_U5.VEE_B) 6.000E-06                    

(X_U5.VIMON)    5.9994                (X_U1.VOUT_S)    9.1137                   

(X_U1.VSENSE)    9.2960               (X_U1.X_U1.3)    0.0000                   

(X_U1.X_U1.4)    0.0000               (X_U1.X_U1.5)    0.0000                   

(X_U1.X_U1.6)    0.0000               (X_U1.X_U1.7)     .8338                   

(X_U1.X_U1.8)     .8338               (X_U3.VOUT_S)    4.5086                   

(X_U3.VSENSE)    8.1247               (X_U3.X_U1.3)    0.0000                   

(X_U3.X_U1.4)    0.0000               (X_U3.X_U1.5)    0.0000                   

(X_U3.X_U1.6)    0.0000               (X_U3.X_U1.7)     .8338                   

(X_U3.X_U1.8)     .8338               (X_U5.VOUT_S)   10.4190                   

(X_U5.VSENSE)   10.6780               (X_U5.X_U1.3)    0.0000                   

(X_U5.X_U1.4)    0.0000               (X_U5.X_U1.5)    0.0000                   

(X_U5.X_U1.6)    0.0000               (X_U5.X_U1.7)     .8338                   

(X_U5.X_U1.8)     .8338               (X_U1.VCC_CLP)   11.8000                  

(X_U1.VEE_CLP)     .2000              (X_U1.X_U36.3)    0.0000                  

(X_U1.X_U36.5)    0.0000              (X_U1.X_U37.3)    0.0000                  

(X_U1.X_U37.5)    0.0000              (X_U1.X_U38.1)    9.1137                  

(X_U3.VCC_CLP)   10.9880              (X_U3.VEE_CLP)     .2000                  

(X_U3.X_U36.3)    0.0000              (X_U3.X_U36.5)    0.0000                  

(X_U3.X_U37.3)    0.0000              (X_U3.X_U37.5)    0.0000                  

(X_U3.X_U38.1)    3.5000              (X_U5.VCC_CLP)   11.8000                  

(X_U5.VEE_CLP)     .2000              (X_U5.X_U36.3)    0.0000                  

(X_U5.X_U36.5)    0.0000              (X_U5.X_U37.3)    0.0000                  

(X_U5.X_U37.5)    0.0000              (X_U5.X_U38.1)   11.0000                  

(X_U1.CL_CLAMP)    9.2948             (X_U1.N5214286)    9.1136                 

(X_U1.N5220542)    5.9997             (X_U1.N5220544)    9.1137                 

(X_U1.N5220550)    9.1137             (X_U1.N5220566)    5.9997                 

(X_U1.N5220568)    5.9997             (X_U1.N5220570)    9.1137                 

(X_U1.N5220574)    9.1137             (X_U1.N5220596)    9.1137                 

(X_U1.N5220600)   12.1000             (X_U1.N5220612)    -.1000                 

(X_U1.N5220620)    9.1137             (X_U1.N5220634)    9.1137                 

(X_U1.N5220644)    5.9997             (X_U1.N5220690)    5.9997                 

(X_U1.N5220702)    5.9997             (X_U1.N5220724)    5.9997                 

(X_U1.N5220726)    5.9997             (X_U1.N5220768)   98.0000                 

(X_U1.N5220770)    5.9997             (X_U1.N5220772)    5.9997                 

(X_U1.N5220792)    5.9997             (X_U1.N5220798)    5.9997                 

(X_U1.N5220810)  -96.4000             (X_U1.N5220862)   66.0000                 

(X_U1.N5220866)    5.9997             (X_U1.N5220868)    5.9997                 

(X_U1.N5220886)    5.9997             (X_U1.N5220892)    5.9997                 

(X_U1.N5220904)  -54.0000             (X_U1.N5220930)    9.2960                 

(X_U1.N5220958)   11.8000             (X_U1.N5220962)     .2000                 

(X_U1.N5220990)     .2000             (X_U1.N5220994)   11.8000                 

(X_U1.N5221054)    5.9997             (X_U1.N5221060)    5.9997                 

(X_U1.N5221066)    5.9997             (X_U1.N5221108)    5.9997                 

(X_U1.N5221120)    9.1137             (X_U1.N5221190)    9.1137                 

(X_U1.N5221222)    6.7948             (X_U1.N5221242)   11.3950                 

(X_U1.N5221250)    6.7948             (X_U1.N5221254)    6.7948                 

(X_U1.N5221278)   11.3950             (X_U1.N5221286)   11.3950                 

(X_U1.N5221330)    5.9997             (X_U1.N5221352)   12.0000                 

(X_U1.N5221368) 6.006E-06             (X_U1.N5221462)    9.2948                 

(X_U1.N5221526)    9.2948             (X_U1.N5221534)   40.2360                 

(X_U1.N5221538)    6.1225             (X_U1.N5221574)   40.2540                 

(X_U1.N5221656)    6.3422             (X_U1.N5221668)    9.2960                 

(X_U1.N5221670)    9.2960             (X_U1.N5221694)   40.2620                 

(X_U1.N5221696)   40.2620             (X_U1.N5221736)    3.7678                 

(X_U1.N5221778)    9.2960             (X_U1.N5221808)   40.2620                 

(X_U1.N5221816)   40.2620             (X_U1.N5221836)   40.2590                 

(X_U1.N5221878)    9.1137             (X_U1.N5231966)    6.0000                 

(X_U1.N5231976)    5.9997             (X_U1.N5231986)    6.0123                 

(X_U1.N5259537)    9.2960             (X_U1.N5263447)   10.3210                 

(X_U1.N5290336)    6.0563             (X_U1.N5290346)    5.9997                 

(X_U1.N5290356)    5.9997             (X_U3.CL_CLAMP)    8.1239                 

(X_U3.N5214286)    3.5000             (X_U3.N5220542)    5.9997                 

(X_U3.N5220544)    3.5000             (X_U3.N5220550)    3.5000                 

(X_U3.N5220566)    5.9997             (X_U3.N5220568)    5.9997                 

(X_U3.N5220570)    3.5000             (X_U3.N5220574)    3.5000                 

(X_U3.N5220596)    3.5000             (X_U3.N5220600)   12.1000                 

(X_U3.N5220612)    -.1000             (X_U3.N5220620)    3.5000                 

(X_U3.N5220634)    3.5000             (X_U3.N5220644)    5.9997                 

(X_U3.N5220690)    5.9997             (X_U3.N5220702)    5.9997                 

(X_U3.N5220724)    5.9997             (X_U3.N5220726)    5.9997                 

(X_U3.N5220768)   98.0000             (X_U3.N5220770)    5.9997                 

(X_U3.N5220772)    5.9997             (X_U3.N5220792)    5.9997                 

(X_U3.N5220798)    5.9997             (X_U3.N5220810)  -96.4000                 

(X_U3.N5220862)   66.0000             (X_U3.N5220866)    5.9997                 

(X_U3.N5220868)    5.9997             (X_U3.N5220886)    5.9997                 

(X_U3.N5220892)    5.9997             (X_U3.N5220904)  -54.0000                 

(X_U3.N5220930)    8.1247             (X_U3.N5220958)   10.9880                 

(X_U3.N5220962)     .2000             (X_U3.N5220990)     .2000                 

(X_U3.N5220994)   10.9880             (X_U3.N5221054)    5.9997                 

(X_U3.N5221060)    5.9997             (X_U3.N5221066)    5.9997                 

(X_U3.N5221108)   41.0000             (X_U3.N5221120)    4.5086                 

(X_U3.N5221190)    4.5086             (X_U3.N5221222)    5.6239                 

(X_U3.N5221242)   10.2240             (X_U3.N5221250)    5.6239                 

(X_U3.N5221254)    5.6239             (X_U3.N5221278)   10.2240                 

(X_U3.N5221286)   10.2240             (X_U3.N5221330)    5.9997                 

(X_U3.N5221352)   12.0000             (X_U3.N5221368) 6.006E-06                 

(X_U3.N5221462)    8.1239             (X_U3.N5221526)    8.1239                 

(X_U3.N5221534)  689.2300             (X_U3.N5221538)    8.4505                 

(X_U3.N5221574)  689.6000             (X_U3.N5221656)   12.8360                 

(X_U3.N5221668)    8.1247             (X_U3.N5221670)    8.1247                 

(X_U3.N5221694)  689.7700             (X_U3.N5221696)  689.7700                 

(X_U3.N5221736)    3.7678             (X_U3.N5221778)    8.1247                 

(X_U3.N5221808)  689.7700             (X_U3.N5221816)  689.7700                 

(X_U3.N5221836)  689.7000             (X_U3.N5221878)    3.5000                 

(X_U3.N5231966)    6.0000             (X_U3.N5231976)    5.9997                 

(X_U3.N5231986)    6.0123             (X_U3.N5259537)    8.1247                 

(X_U3.N5263447)    8.7855             (X_U3.N5290336)    5.9542                 

(X_U3.N5290346)    5.9997             (X_U3.N5290356)    5.9997                 

(X_U5.CL_CLAMP)   10.6770             (X_U5.N5214286)   11.0000                 

(X_U5.N5220542)    5.9997             (X_U5.N5220544)   11.0000                 

(X_U5.N5220550)   11.0000             (X_U5.N5220566)    5.9997                 

(X_U5.N5220568)    5.9997             (X_U5.N5220570)   11.0000                 

(X_U5.N5220574)   11.0000             (X_U5.N5220596)   11.0000                 

(X_U5.N5220600)   12.1000             (X_U5.N5220612)    -.1000                 

(X_U5.N5220620)   11.0000             (X_U5.N5220634)   11.0000                 

(X_U5.N5220644)    5.9997             (X_U5.N5220690)    5.9997                 

(X_U5.N5220702)    5.9997             (X_U5.N5220724)    5.9997                 

(X_U5.N5220726)    5.9997             (X_U5.N5220768)   98.0000                 

(X_U5.N5220770)    5.9997             (X_U5.N5220772)    5.9997                 

(X_U5.N5220792)    5.9997             (X_U5.N5220798)    5.9997                 

(X_U5.N5220810)  -96.4000             (X_U5.N5220862)   66.0000                 

(X_U5.N5220866)    5.9997             (X_U5.N5220868)    5.9997                 

(X_U5.N5220886)    5.9997             (X_U5.N5220892)    5.9997                 

(X_U5.N5220904)  -54.0000             (X_U5.N5220930)   10.6780                 

(X_U5.N5220958)   11.8000             (X_U5.N5220962)     .2000                 

(X_U5.N5220990)     .2000             (X_U5.N5220994)   11.8000                 

(X_U5.N5221054)    5.9997             (X_U5.N5221060)    5.9997                 

(X_U5.N5221066)    5.9997             (X_U5.N5221108)    5.9994                 

(X_U5.N5221120)   10.4190             (X_U5.N5221190)   10.4190                 

(X_U5.N5221222)    8.1766             (X_U5.N5221242)   12.7770                 

(X_U5.N5221250)    8.1766             (X_U5.N5221254)    8.1766                 

(X_U5.N5221278)   12.7770             (X_U5.N5221286)   12.7770                 

(X_U5.N5221330)    5.9997             (X_U5.N5221352)   12.0000                 

(X_U5.N5221368) 6.006E-06             (X_U5.N5221462)   10.6770                 

(X_U5.N5221526)   10.6770             (X_U5.N5221534)   54.5870                 

(X_U5.N5221538)    6.1740             (X_U5.N5221574)   54.6120                 

(X_U5.N5221656)    6.4858             (X_U5.N5221668)   10.6780                 

(X_U5.N5221670)   10.6780             (X_U5.N5221694)   54.6240                 

(X_U5.N5221696)   54.6240             (X_U5.N5221736)    3.7678                 

(X_U5.N5221778)   10.6780             (X_U5.N5221808)   54.6240                 

(X_U5.N5221816)   54.6240             (X_U5.N5221836)   54.6200                 

(X_U5.N5221878)   11.0000             (X_U5.N5231966)    6.0000                 

(X_U5.N5231976)    5.9997             (X_U5.N5231986)    6.0123                 

(X_U5.N5259537)   10.6780             (X_U5.N5263447)   12.1330                 

(X_U5.N5290336)    6.0906             (X_U5.N5290346)    5.9997                 

(X_U5.N5290356)    5.9997             (X_U1.N53210501)   40.2620                

(X_U1.N53216461)    9.2960            (X_U1.N53229461)   40.2620                

(X_U3.N53210501)  689.7700            (X_U3.N53216461)    8.1247                

(X_U3.N53229461)  689.7700            (X_U5.N53210501)   54.6240                

(X_U5.N53216461)   10.6780            (X_U5.N53229461)   54.6240                

(X_U1.CLAW_CLAMP)    9.2948           (X_U3.CLAW_CLAMP)    8.1239               

(X_U5.CLAW_CLAMP)   10.6770           (X_U1.SW_OL_OPA2156)    5.9997            

(X_U3.SW_OL_OPA2156)    5.9997        (X_U5.SW_OL_OPA2156)    5.9997        




    VOLTAGE SOURCE CURRENTS
    NAME         CURRENT

    V_V1        -4.968E-02
    V_V2        -3.815E-11
    V_V3         1.260E-11
    V_V4         2.462E-11
    V_V5         7.309E-10
    X_U1.V_VCM_MAX  -6.104E-12
    X_U1.V_VCM_MIN   6.100E-12
    X_U1.V_V_GRN   6.000E-11
    X_U1.V_V_GRP  -6.000E-11
    X_U1.V_V_ISCN   1.024E-10
    X_U1.V_V_ISCP  -9.200E-11
    X_U1.V_V_ORN   0.000E+00
